T462C 000:011.352   SEGGER J-Link V6.72e Log File
T462C 000:011.491   DLL Compiled: May 20 2020 12:45:53
T462C 000:011.497   Logging started @ 2023-04-12 14:31
T462C 000:011.505 JLINK_SetWarnOutHandler(...)
T462C 000:011.512 - 0.009ms
T462C 000:011.523 JLINK_OpenEx(...)
T462C 000:013.403   Firmware: J-Link V9 compiled Feb  2 2021 16:34:10
T462C 000:013.595   Decompressing FW timestamp took 152 us
T462C 000:021.301   Hardware: V9.20
T462C 000:021.316   S/N: 59800873
T462C 000:021.327   OEM: SEGGER
T462C 000:021.334   Feature(s): RDI, GDB, FlashDL, FlashBP, JFlash
T462C 000:022.975   TELNET listener socket opened on port 19021
T462C 000:023.121   WEBSRV Starting webserver
T462C 000:023.351   WEBSRV Webserver running on local port 19080
T462C 000:023.361 - 11.840ms returns "O.K."
T462C 000:023.380 JLINK_GetEmuCaps()
T462C 000:023.385 - 0.008ms returns 0xB9FF7BBF
T462C 000:023.395 JLINK_TIF_GetAvailable(...)
T462C 000:023.649 - 0.260ms
T462C 000:023.664 JLINK_SetErrorOutHandler(...)
T462C 000:023.669 - 0.007ms
T462C 000:023.686 JLINK_ExecCommand("ProjectFile = "D:\Encoder_reader\bsp\gd32\arm\gd32303e-eval\JLinkSettings.ini"", ...). 
T462C 000:031.617   Ref file found at: F:\keil_mdk530\ARM\Segger\JLinkDevices.ref
T462C 000:031.734   XML referenced by ref file: C:\Program Files (x86)\SEGGER\JLink\JLinkDevices.xml
T462C 000:032.395   C:\Program Files (x86)\SEGGER\JLink\JLinkDevices.xml evaluated successfully.
T462C 000:070.011   Device "CORTEX-M4" selected.
T462C 000:070.421 - 46.749ms returns 0x00
T462C 000:070.451 JLINK_ExecCommand("Device = GD32F303CB", ...). 
T462C 000:070.582   Device "CORTEX-M4" selected.
T462C 000:070.904 - 0.449ms returns 0x00
T462C 000:070.917 JLINK_ExecCommand("DisableConnectionTimeout", ...). 
T462C 000:070.927 - 0.005ms returns 0x01
T462C 000:070.934 JLINK_GetHardwareVersion()
T462C 000:070.942 - 0.010ms returns 0x16760
T462C 000:070.954 JLINK_GetDLLVersion()  returns 67205
T462C 000:070.969 JLINK_GetFirmwareString(...)
T462C 000:070.974 - 0.007ms
T462C 000:070.995 JLINK_GetDLLVersion()  returns 67205
T462C 000:071.002 JLINK_GetCompileDateTime()
T462C 000:071.007 - 0.007ms
T462C 000:071.018 JLINK_GetFirmwareString(...)
T462C 000:071.023 - 0.007ms
T462C 000:071.033 JLINK_GetHardwareVersion()
T462C 000:071.038 - 0.007ms returns 0x16760
T462C 000:071.063 JLINK_TIF_Select(JLINKARM_TIF_SWD)
T462C 000:072.068 - 1.010ms returns 0x00
T462C 000:072.097 JLINK_SetSpeed(5000)
T462C 000:072.203 - 0.111ms
T462C 000:072.215 JLINK_GetId()
T462C 000:073.043   Found SW-DP with ID 0x2BA01477
T462C 000:075.292   DPIDR: 0x2BA01477
T462C 000:075.314   Scanning AP map to find all available APs
T462C 000:075.838   AP[1]: Stopped AP scan as end of AP map has been reached
T462C 000:075.859   AP[0]: AHB-AP (IDR: 0x24770011)
T462C 000:075.870   Iterating through AP map to find AHB-AP to use
T462C 000:076.861   AP[0]: Core found
T462C 000:076.875   AP[0]: AHB-AP ROM base: 0xE00FF000
T462C 000:077.366   CPUID register: 0x410FC241. Implementer code: 0x41 (ARM)
T462C 000:077.380   Found Cortex-M4 r0p1, Little endian.
T462C 000:179.015   -- Max. mem block: 0x00010C20
T462C 000:179.057   CPU_ReadMem(4 bytes @ 0xE000EDF0)
T462C 000:179.892   CPU_WriteMem(4 bytes @ 0xE000EDF0)
T462C 000:180.840   CPU_ReadMem(4 bytes @ 0xE0002000)
T462C 000:181.926   FPUnit: 6 code (BP) slots and 2 literal slots
T462C 000:181.949   CPU_ReadMem(4 bytes @ 0xE000EDFC)
T462C 000:182.442   CPU_WriteMem(4 bytes @ 0xE000EDFC)
T462C 000:182.947   CPU_ReadMem(4 bytes @ 0xE0001000)
T462C 000:183.414   CPU_WriteMem(4 bytes @ 0xE0001000)
T462C 000:184.369   CPU_ReadMem(4 bytes @ 0xE000ED88)
T462C 000:184.782   CPU_WriteMem(4 bytes @ 0xE000ED88)
T462C 000:185.303   CPU_ReadMem(4 bytes @ 0xE000ED88)
T462C 000:185.801   CPU_WriteMem(4 bytes @ 0xE000ED88)
T462C 000:186.248   CoreSight components:
T462C 000:186.276   ROMTbl[0] @ E00FF000
T462C 000:186.285   CPU_ReadMem(64 bytes @ 0xE00FF000)
T462C 000:186.831   CPU_ReadMem(32 bytes @ 0xE000EFE0)
T462C 000:187.325   ROMTbl[0][0]: E000E000, CID: B105E00D, PID: 000BB00C SCS-M7
T462C 000:187.383   CPU_ReadMem(32 bytes @ 0xE0001FE0)
T462C 000:187.783   ROMTbl[0][1]: E0001000, CID: B105E00D, PID: 003BB002 DWT
T462C 000:187.796   CPU_ReadMem(32 bytes @ 0xE0002FE0)
T462C 000:188.293   ROMTbl[0][2]: E0002000, CID: B105E00D, PID: 002BB003 FPB
T462C 000:188.304   CPU_ReadMem(32 bytes @ 0xE0000FE0)
T462C 000:188.764   ROMTbl[0][3]: E0000000, CID: B105E00D, PID: 003BB001 ITM
T462C 000:188.775   CPU_ReadMem(32 bytes @ 0xE0040FE0)
T462C 000:189.261   ROMTbl[0][4]: E0040000, CID: B105900D, PID: 000BB9A1 TPIU
T462C 000:189.272   CPU_ReadMem(32 bytes @ 0xE0041FE0)
T462C 000:189.743   ROMTbl[0][5]: E0041000, CID: 00000000, PID: 00000000 ???
T462C 000:190.067 - 117.857ms   returns 0x2BA01477
T462C 000:190.083 JLINK_GetDLLVersion()  returns 67205
T462C 000:190.092 JLINK_CORE_GetFound()
T462C 000:190.097 - 0.007ms returns 0xE0000FF
T462C 000:190.142 JLINK_GetDebugInfo(0x100 = JLINKARM_ROM_TABLE_ADDR_INDEX)
T462C 000:190.151   Value=0xE00FF000
T462C 000:190.158 - 0.019ms returns 0x00
T462C 000:190.174 JLINK_GetDebugInfo(0x100 = JLINKARM_ROM_TABLE_ADDR_INDEX)
T462C 000:190.179   Value=0xE00FF000
T462C 000:190.186 - 0.015ms returns 0x00
T462C 000:190.193 JLINK_GetDebugInfo(0x101 = JLINKARM_DEBUG_INFO_ETM_ADDR_INDEX)
T462C 000:190.198   Value=0x00000000
T462C 000:190.205 - 0.014ms returns 0x00
T462C 000:190.222   JLINK_ReadMemEx(0xE0041FF0, 0x0010 Bytes, ..., Flags = 0x02000004)
T462C 000:190.252   CPU_ReadMem(16 bytes @ 0xE0041FF0)
T462C 000:190.549   Data:  00 00 00 00 00 00 00 00 00 00 00 00 00 00 00 00
T462C 000:190.559 - 0.343ms returns 0x10
T462C 000:190.568 JLINK_GetDebugInfo(0x102 = JLINKARM_DEBUG_INFO_MTB_ADDR_INDEX)
T462C 000:190.574   Value=0x00000000
T462C 000:190.581 - 0.015ms returns 0x00
T462C 000:190.587 JLINK_GetDebugInfo(0x103 = JLINKARM_DEBUG_INFO_TPIU_ADDR_INDEX)
T462C 000:190.593   Value=0xE0040000
T462C 000:190.600 - 0.014ms returns 0x00
T462C 000:190.606 JLINK_GetDebugInfo(0x104 = JLINKARM_DEBUG_INFO_ITM_ADDR_INDEX)
T462C 000:190.612   Value=0xE0000000
T462C 000:190.619 - 0.014ms returns 0x00
T462C 000:190.625 JLINK_GetDebugInfo(0x105 = JLINKARM_DEBUG_INFO_DWT_ADDR_INDEX)
T462C 000:190.631   Value=0xE0001000
T462C 000:190.638 - 0.014ms returns 0x00
T462C 000:190.644 JLINK_GetDebugInfo(0x106 = JLINKARM_DEBUG_INFO_FPB_ADDR_INDEX)
T462C 000:190.649   Value=0xE0002000
T462C 000:190.657 - 0.014ms returns 0x00
T462C 000:190.663 JLINK_GetDebugInfo(0x107 = JLINKARM_DEBUG_INFO_NVIC_ADDR_INDEX)
T462C 000:190.668   Value=0xE000E000
T462C 000:190.675 - 0.014ms returns 0x00
T462C 000:190.682 JLINK_GetDebugInfo(0x10C = JLINKARM_DEBUG_INFO_DBG_ADDR_INDEX)
T462C 000:190.687   Value=0xE000EDF0
T462C 000:190.694 - 0.014ms returns 0x00
T462C 000:190.701 JLINK_GetDebugInfo(0x01 = Unknown)
T462C 000:190.710   Value=0x00000001
T462C 000:190.717 - 0.018ms returns 0x00
T462C 000:190.724 JLINK_ReadMemU32(0xE000ED00, 0x0001 Items, ...)
T462C 000:190.732   CPU_ReadMem(4 bytes @ 0xE000ED00)
T462C 000:190.976   Data:  41 C2 0F 41
T462C 000:190.988   Debug reg: CPUID
T462C 000:190.996 - 0.274ms returns 1
T462C 000:191.004 JLINK_GetDebugInfo(0x10F = JLINKARM_DEBUG_INFO_HAS_CORTEX_M_SECURITY_EXT_INDEX)
T462C 000:191.010   Value=0x00000000
T462C 000:191.017 - 0.015ms returns 0x00
T462C 000:191.026 JLINK_SetResetType(JLINKARM_CM3_RESET_TYPE_NORMAL)
T462C 000:191.032 - 0.008ms returns JLINKARM_CM3_RESET_TYPE_NORMAL
T462C 000:191.039 JLINK_Reset()
T462C 000:191.069   CPU is running
T462C 000:191.078   CPU_WriteMem(4 bytes @ 0xE000EDF0)
T462C 000:191.454   CPU is running
T462C 000:191.465   CPU_WriteMem(4 bytes @ 0xE000EDFC)
T462C 000:191.718   Reset: Halt core after reset via DEMCR.VC_CORERESET.
T462C 000:192.069   Reset: Reset device via AIRCR.SYSRESETREQ.
T462C 000:192.080   CPU is running
T462C 000:192.088   CPU_WriteMem(4 bytes @ 0xE000ED0C)
T462C 000:245.006   CPU_ReadMem(4 bytes @ 0xE000EDF0)
T462C 000:245.435   CPU_ReadMem(4 bytes @ 0xE000EDF0)
T462C 000:245.902   CPU is running
T462C 000:245.916   CPU_WriteMem(4 bytes @ 0xE000EDF0)
T462C 000:246.453   CPU is running
T462C 000:246.469   CPU_WriteMem(4 bytes @ 0xE000EDFC)
T462C 000:253.140   CPU_ReadMem(4 bytes @ 0xE000EDF0)
T462C 000:257.027   CPU_WriteMem(4 bytes @ 0xE0002000)
T462C 000:257.943   CPU_ReadMem(4 bytes @ 0xE000EDFC)
T462C 000:258.405   CPU_ReadMem(4 bytes @ 0xE0001000)
T462C 000:259.748 - 68.715ms
T462C 000:259.776 JLINK_ReadReg(R15 (PC))
T462C 000:259.793 - 0.019ms returns 0x080047E4
T462C 000:259.800 JLINK_ReadReg(XPSR)
T462C 000:259.806 - 0.008ms returns 0x01000000
T462C 000:259.815 JLINK_Halt()
T462C 000:259.820 - 0.007ms returns 0x00
T462C 000:259.828 JLINK_ReadMemU32(0xE000EDF0, 0x0001 Items, ...)
T462C 000:259.836   CPU_ReadMem(4 bytes @ 0xE000EDF0)
T462C 000:260.677   Data:  03 00 03 00
T462C 000:260.689   Debug reg: DHCSR
T462C 000:260.696 - 0.870ms returns 1
T462C 000:260.707 JLINK_WriteU32(0xE000EDF0, 0xA05F0003)
T462C 000:260.712   Debug reg: DHCSR
T462C 000:260.738   CPU_WriteMem(4 bytes @ 0xE000EDF0)
T462C 000:261.608 - 0.907ms returns 0
T462C 000:261.622 JLINK_WriteU32(0xE000EDFC, 0x01000000)
T462C 000:261.627   Debug reg: DEMCR
T462C 000:261.638   CPU_WriteMem(4 bytes @ 0xE000EDFC)
T462C 000:262.103 - 0.486ms returns 0
T462C 000:262.149 JLINK_GetHWStatus(...)
T462C 000:262.468 - 0.323ms returns 0x00
T462C 000:262.497 JLINK_GetNumBPUnits(Type = 0xFFFFFF00)
T462C 000:262.504 - 0.009ms returns 0x06
T462C 000:262.510 JLINK_GetNumBPUnits(Type = 0xF0)
T462C 000:262.515 - 0.007ms returns 0x2000
T462C 000:262.522 JLINK_GetNumWPUnits()
T462C 000:262.527 - 0.007ms returns 0x04
T462C 000:262.601 JLINK_GetSpeed()
T462C 000:262.609 - 0.010ms returns 0xFA0
T462C 000:262.625 JLINK_ReadMemU32(0xE000E004, 0x0001 Items, ...)
T462C 000:262.635   CPU_ReadMem(4 bytes @ 0xE000E004)
T462C 000:262.991   Data:  02 00 00 00
T462C 000:263.001 - 0.378ms returns 1
T462C 000:263.010 JLINK_ReadMemU32(0xE000E004, 0x0001 Items, ...)
T462C 000:263.018   CPU_ReadMem(4 bytes @ 0xE000E004)
T462C 000:263.880   Data:  02 00 00 00
T462C 000:263.892 - 0.884ms returns 1
T462C 000:263.901 JLINK_WriteMemEx(0xE0001000, 0x001C Bytes, ..., Flags = 0x02000004)
T462C 000:263.907   Data:  01 00 00 00 00 00 00 00 00 00 00 00 00 00 00 00 ...
T462C 000:264.162   CPU_WriteMem(28 bytes @ 0xE0001000)
T462C 000:264.685 - 0.789ms returns 0x1C
T462C 000:264.706 JLINK_ReadReg(R15 (PC))
T462C 000:264.714 - 0.010ms returns 0x080047E4
T462C 000:264.721 JLINK_ReadReg(XPSR)
T462C 000:264.727 - 0.008ms returns 0x01000000
T462C 000:268.765   JLINK_ReadMemEx(0xE0001004, 0x0004 Bytes, ..., Flags = 0x02000000)
T462C 000:268.780   Data:  00 00 00 00
T462C 000:268.788   Debug reg: DWT_CYCCNT
T462C 000:268.795 - 0.032ms returns 0x04
T462C 000:352.745 JLINK_SetResetType(JLINKARM_CM3_RESET_TYPE_NORMAL)
T462C 000:352.764 - 0.022ms returns JLINKARM_CM3_RESET_TYPE_NORMAL
T462C 000:352.772 JLINK_Reset()
T462C 000:352.787   CPU_WriteMem(4 bytes @ 0xE000EDF0)
T462C 000:353.046   CPU_WriteMem(4 bytes @ 0xE000EDFC)
T462C 000:353.369   Reset: Halt core after reset via DEMCR.VC_CORERESET.
T462C 000:353.718   Reset: Reset device via AIRCR.SYSRESETREQ.
T462C 000:353.730   CPU_WriteMem(4 bytes @ 0xE000ED0C)
T462C 000:406.695   CPU_ReadMem(4 bytes @ 0xE000EDF0)
T462C 000:407.069   CPU_ReadMem(4 bytes @ 0xE000EDF0)
T462C 000:407.519   CPU_WriteMem(4 bytes @ 0xE000EDF0)
T462C 000:407.925   CPU_WriteMem(4 bytes @ 0xE000EDFC)
T462C 000:413.530   CPU_ReadMem(4 bytes @ 0xE000EDF0)
T462C 000:417.102   CPU_WriteMem(4 bytes @ 0xE0002000)
T462C 000:418.189   CPU_ReadMem(4 bytes @ 0xE000EDFC)
T462C 000:418.646   CPU_ReadMem(4 bytes @ 0xE0001000)
T462C 000:419.660 - 66.904ms
T462C 000:419.788 JLINK_ReadReg(R15 (PC))
T462C 000:419.806 - 0.021ms returns 0x080047E4
T462C 000:419.814 JLINK_ReadReg(XPSR)
T462C 000:419.820 - 0.008ms returns 0x01000000
T462C 000:420.110   JLINK_ReadMemEx(0x080047E4, 0x003C Bytes, ..., Flags = 0x02000000)
T462C 000:420.128   CPU_ReadMem(60 bytes @ 0x080047E4)
T462C 000:421.488   Data:  09 48 80 47 09 48 00 47 FE E7 FE E7 FE E7 FE E7 ...
T462C 000:421.509 - 1.406ms returns 0x3C
T462C 000:421.528   JLINK_ReadMemEx(0x080047E4, 0x0002 Bytes, ..., Flags = 0x02000000)
T462C 000:421.544   CPU_ReadMem(2 bytes @ 0x080047E4)
T462C 000:422.001   Data:  09 48
T462C 000:422.013 - 0.488ms returns 0x02
T462C 000:422.103   JLINK_ReadMemEx(0x080047E6, 0x0002 Bytes, ..., Flags = 0x02000000)
T462C 000:422.116   CPU_ReadMem(2 bytes @ 0x080047E6)
T462C 000:422.630   Data:  80 47
T462C 000:422.643 - 0.543ms returns 0x02
T3EA0 002:170.550   JLINK_ReadMemEx(0x080047E4, 0x0002 Bytes, ..., Flags = 0x02000000)
T3EA0 002:170.580   CPU_ReadMem(2 bytes @ 0x080047E4)
T3EA0 002:170.932   Data:  09 48
T3EA0 002:170.944 - 0.397ms returns 0x02
T3EA0 002:170.957   JLINK_SetBPEx(Addr = 0x08007336, Type = 0xFFFFFFF2)
T3EA0 002:170.967 - 0.014ms returns 0x00000001
T3EA0 002:170.979 JLINK_Go()
T3EA0 002:171.308   CPU_WriteMem(4 bytes @ 0xE0002000)
T3EA0 002:171.663   CPU_ReadMem(4 bytes @ 0xE0001000)
T3EA0 002:171.989   CPU_WriteMem(4 bytes @ 0xE0002008)
T3EA0 002:172.001   CPU_WriteMem(4 bytes @ 0xE000200C)
T3EA0 002:172.009   CPU_WriteMem(4 bytes @ 0xE0002010)
T3EA0 002:172.017   CPU_WriteMem(4 bytes @ 0xE0002014)
T3EA0 002:172.024   CPU_WriteMem(4 bytes @ 0xE0002018)
T3EA0 002:172.033   CPU_WriteMem(4 bytes @ 0xE000201C)
T3EA0 002:173.114   CPU_WriteMem(4 bytes @ 0xE0001004)
T3EA0 002:173.725 - 2.752ms
T3EA0 002:274.073 JLINK_IsHalted()
T3EA0 002:276.103 - 2.039ms returns TRUE
T3EA0 002:276.122 JLINK_Halt()
T3EA0 002:276.127 - 0.007ms returns 0x00
T3EA0 002:276.134 JLINK_IsHalted()
T3EA0 002:276.139 - 0.007ms returns TRUE
T3EA0 002:276.146 JLINK_IsHalted()
T3EA0 002:276.151 - 0.007ms returns TRUE
T3EA0 002:276.158 JLINK_IsHalted()
T3EA0 002:276.163 - 0.007ms returns TRUE
T3EA0 002:276.175 JLINK_ReadReg(R15 (PC))
T3EA0 002:276.182 - 0.010ms returns 0x08007336
T3EA0 002:276.190 JLINK_ReadReg(XPSR)
T3EA0 002:276.195 - 0.008ms returns 0x21000000
T3EA0 002:276.206 JLINK_ClrBPEx(BPHandle = 0x00000001)
T3EA0 002:276.212 - 0.008ms returns 0x00
T3EA0 002:276.223 JLINK_ReadMemU32(0xE000ED30, 0x0001 Items, ...)
T3EA0 002:276.233   CPU_ReadMem(4 bytes @ 0xE000ED30)
T3EA0 002:276.511   Data:  02 00 00 00
T3EA0 002:276.523 - 0.303ms returns 1
T3EA0 002:276.533 JLINK_ReadMemU32(0xE0001028, 0x0001 Items, ...)
T3EA0 002:276.543   CPU_ReadMem(4 bytes @ 0xE0001028)
T3EA0 002:276.937   Data:  00 00 00 00
T3EA0 002:276.960   Debug reg: DWT_FUNC[0]
T3EA0 002:276.968 - 0.437ms returns 1
T3EA0 002:276.977 JLINK_ReadMemU32(0xE0001038, 0x0001 Items, ...)
T3EA0 002:276.987   CPU_ReadMem(4 bytes @ 0xE0001038)
T3EA0 002:277.351   Data:  00 02 00 00
T3EA0 002:277.363   Debug reg: DWT_FUNC[1]
T3EA0 002:277.370 - 0.395ms returns 1
T3EA0 002:277.379 JLINK_ReadMemU32(0xE0001048, 0x0001 Items, ...)
T3EA0 002:277.389   CPU_ReadMem(4 bytes @ 0xE0001048)
T3EA0 002:277.679   Data:  00 00 00 00
T3EA0 002:277.690   Debug reg: DWT_FUNC[2]
T3EA0 002:277.697 - 0.321ms returns 1
T3EA0 002:277.706 JLINK_ReadMemU32(0xE0001058, 0x0001 Items, ...)
T3EA0 002:277.716   CPU_ReadMem(4 bytes @ 0xE0001058)
T3EA0 002:278.042   Data:  00 00 00 00
T3EA0 002:278.054   Debug reg: DWT_FUNC[3]
T3EA0 002:278.061 - 0.357ms returns 1
T3EA0 002:278.113 JLINK_ReadReg(R0)
T3EA0 002:278.121 - 0.011ms returns 0x200009F0
T3EA0 002:278.129 JLINK_ReadReg(R1)
T3EA0 002:278.134 - 0.008ms returns 0x20000DF0
T3EA0 002:278.141 JLINK_ReadReg(R2)
T3EA0 002:278.147 - 0.008ms returns 0x20000DF0
T3EA0 002:278.153 JLINK_ReadReg(R3)
T3EA0 002:278.159 - 0.008ms returns 0x20000DF0
T3EA0 002:278.166 JLINK_ReadReg(R4)
T3EA0 002:278.171 - 0.008ms returns 0x00000000
T3EA0 002:278.178 JLINK_ReadReg(R5)
T3EA0 002:278.183 - 0.007ms returns 0x20000990
T3EA0 002:278.190 JLINK_ReadReg(R6)
T3EA0 002:278.195 - 0.008ms returns 0x00000000
T3EA0 002:278.202 JLINK_ReadReg(R7)
T3EA0 002:278.208 - 0.007ms returns 0x00000000
T3EA0 002:278.214 JLINK_ReadReg(R8)
T3EA0 002:278.220 - 0.008ms returns 0x00000000
T3EA0 002:278.227 JLINK_ReadReg(R9)
T3EA0 002:278.232 - 0.008ms returns 0xDEADBEEF
T3EA0 002:278.239 JLINK_ReadReg(R10)
T3EA0 002:278.292 - 0.058ms returns 0x0800FA38
T3EA0 002:278.302 JLINK_ReadReg(R11)
T3EA0 002:278.307 - 0.008ms returns 0x00000000
T3EA0 002:278.314 JLINK_ReadReg(R12)
T3EA0 002:278.319 - 0.008ms returns 0x200009D0
T3EA0 002:278.326 JLINK_ReadReg(R13 (SP))
T3EA0 002:278.332 - 0.008ms returns 0x200011F0
T3EA0 002:278.339 JLINK_ReadReg(R14)
T3EA0 002:278.344 - 0.008ms returns 0x080001FF
T3EA0 002:278.351 JLINK_ReadReg(R15 (PC))
T3EA0 002:278.356 - 0.008ms returns 0x08007336
T3EA0 002:278.363 JLINK_ReadReg(XPSR)
T3EA0 002:278.369 - 0.008ms returns 0x21000000
T3EA0 002:278.375 JLINK_ReadReg(MSP)
T3EA0 002:278.381 - 0.008ms returns 0x200011F0
T3EA0 002:278.388 JLINK_ReadReg(PSP)
T3EA0 002:278.393 - 0.008ms returns 0x200007D8
T3EA0 002:278.400 JLINK_ReadReg(CFBP)
T3EA0 002:278.405 - 0.008ms returns 0x04000000
T3EA0 002:278.412 JLINK_ReadReg(FPSCR)
T3EA0 002:281.863 - 3.457ms returns 0x03000000
T3EA0 002:281.876 JLINK_ReadReg(FPS0)
T3EA0 002:281.884 - 0.010ms returns 0x11003911
T3EA0 002:281.891 JLINK_ReadReg(FPS1)
T3EA0 002:281.897 - 0.008ms returns 0x9A8E716F
T3EA0 002:281.904 JLINK_ReadReg(FPS2)
T3EA0 002:281.910 - 0.008ms returns 0x0C202239
T3EA0 002:281.917 JLINK_ReadReg(FPS3)
T3EA0 002:281.922 - 0.008ms returns 0x1018C402
T3EA0 002:281.929 JLINK_ReadReg(FPS4)
T3EA0 002:281.935 - 0.008ms returns 0x80269C06
T3EA0 002:281.942 JLINK_ReadReg(FPS5)
T3EA0 002:281.947 - 0.008ms returns 0x67C9440E
T3EA0 002:281.954 JLINK_ReadReg(FPS6)
T3EA0 002:281.960 - 0.008ms returns 0x0B9B3C02
T3EA0 002:281.967 JLINK_ReadReg(FPS7)
T3EA0 002:281.972 - 0.008ms returns 0x82070028
T3EA0 002:281.979 JLINK_ReadReg(FPS8)
T3EA0 002:281.985 - 0.008ms returns 0xC4000002
T3EA0 002:281.992 JLINK_ReadReg(FPS9)
T3EA0 002:281.997 - 0.008ms returns 0x081A124A
T3EA0 002:282.004 JLINK_ReadReg(FPS10)
T3EA0 002:282.009 - 0.008ms returns 0x500D7119
T3EA0 002:282.016 JLINK_ReadReg(FPS11)
T3EA0 002:282.022 - 0.008ms returns 0x04A05DE1
T3EA0 002:282.029 JLINK_ReadReg(FPS12)
T3EA0 002:282.034 - 0.008ms returns 0x41634D22
T3EA0 002:282.041 JLINK_ReadReg(FPS13)
T3EA0 002:282.046 - 0.008ms returns 0x19282608
T3EA0 002:282.053 JLINK_ReadReg(FPS14)
T3EA0 002:282.058 - 0.008ms returns 0x8C1004DE
T3EA0 002:282.065 JLINK_ReadReg(FPS15)
T3EA0 002:282.070 - 0.008ms returns 0x851080A2
T3EA0 002:282.077 JLINK_ReadReg(FPS16)
T3EA0 002:282.083 - 0.008ms returns 0xCE02DC08
T3EA0 002:282.089 JLINK_ReadReg(FPS17)
T3EA0 002:282.095 - 0.008ms returns 0x00416420
T3EA0 002:282.102 JLINK_ReadReg(FPS18)
T3EA0 002:282.107 - 0.008ms returns 0xD000808A
T3EA0 002:282.114 JLINK_ReadReg(FPS19)
T3EA0 002:282.119 - 0.008ms returns 0x0170D013
T3EA0 002:282.126 JLINK_ReadReg(FPS20)
T3EA0 002:282.132 - 0.008ms returns 0x02240584
T3EA0 002:282.139 JLINK_ReadReg(FPS21)
T3EA0 002:282.144 - 0.008ms returns 0x6683AA0C
T3EA0 002:282.151 JLINK_ReadReg(FPS22)
T3EA0 002:282.156 - 0.008ms returns 0x341806A8
T3EA0 002:282.163 JLINK_ReadReg(FPS23)
T3EA0 002:282.169 - 0.008ms returns 0x8B84840E
T3EA0 002:282.175 JLINK_ReadReg(FPS24)
T3EA0 002:282.181 - 0.008ms returns 0x0C902000
T3EA0 002:282.188 JLINK_ReadReg(FPS25)
T3EA0 002:282.193 - 0.008ms returns 0x8C1506CA
T3EA0 002:282.200 JLINK_ReadReg(FPS26)
T3EA0 002:282.205 - 0.007ms returns 0x18506108
T3EA0 002:282.212 JLINK_ReadReg(FPS27)
T3EA0 002:282.218 - 0.008ms returns 0x7620B144
T3EA0 002:282.225 JLINK_ReadReg(FPS28)
T3EA0 002:282.231 - 0.008ms returns 0x24D260B1
T3EA0 002:282.237 JLINK_ReadReg(FPS29)
T3EA0 002:282.243 - 0.008ms returns 0x3D020511
T3EA0 002:282.250 JLINK_ReadReg(FPS30)
T3EA0 002:282.256 - 0.008ms returns 0xC4340085
T3EA0 002:282.262 JLINK_ReadReg(FPS31)
T3EA0 002:282.268 - 0.008ms returns 0x00D20284
T462C 002:289.985   JLINK_ReadMemEx(0x08007336, 0x0002 Bytes, ..., Flags = 0x02000000)
T462C 002:290.017   CPU_ReadMem(64 bytes @ 0x08007300)
T462C 002:290.756    -- Updating DA cache (64 bytes @ 0x08007300)
T462C 002:290.805    -- Read from DA cache (2 bytes @ 0x08007336)
T462C 002:290.812   Data:  10 B5
T462C 002:290.820 - 0.838ms returns 0x02
T462C 002:290.830   JLINK_ReadMemEx(0x08007338, 0x003C Bytes, ..., Flags = 0x02000000)
T462C 002:290.846   CPU_ReadMem(64 bytes @ 0x08007340)
T462C 002:291.455    -- Updating DA cache (64 bytes @ 0x08007340)
T462C 002:291.466    -- Read from DA cache (60 bytes @ 0x08007338)
T462C 002:291.474   Data:  FF F7 E8 FF 00 20 10 BD 3C F9 00 08 50 F9 00 08 ...
T462C 002:291.481 - 0.653ms returns 0x3C
T462C 002:291.493   JLINK_ReadMemEx(0x08007338, 0x0002 Bytes, ..., Flags = 0x02000000)
T462C 002:291.503    -- Read from DA cache (2 bytes @ 0x08007338)
T462C 002:291.510   Data:  FF F7
T462C 002:291.517 - 0.027ms returns 0x02
T462C 005:794.005   JLINK_ReadMemEx(0x080004E6, 0x0002 Bytes, ..., Flags = 0x02000000)
T462C 005:794.035   CPU_ReadMem(64 bytes @ 0x080004C0)
T462C 005:794.636    -- Updating DA cache (64 bytes @ 0x080004C0)
T462C 005:794.649    -- Read from DA cache (2 bytes @ 0x080004E6)
T462C 005:794.657   Data:  41 20
T462C 005:794.665 - 0.663ms returns 0x02
T462C 005:794.676   JLINK_ReadMemEx(0x080004E8, 0x003C Bytes, ..., Flags = 0x02000000)
T462C 005:794.688   CPU_ReadMem(64 bytes @ 0x08000500)
T462C 005:795.198    -- Updating DA cache (64 bytes @ 0x08000500)
T462C 005:795.208    -- Read from DA cache (60 bytes @ 0x080004E8)
T462C 005:795.217   Data:  FF F7 4A FF 02 28 03 D0 02 21 41 20 FF F7 B5 FE ...
T462C 005:795.224 - 0.551ms returns 0x3C
T462C 005:795.233   JLINK_ReadMemEx(0x080004E8, 0x0002 Bytes, ..., Flags = 0x02000000)
T462C 005:795.243    -- Read from DA cache (2 bytes @ 0x080004E8)
T462C 005:795.250   Data:  FF F7
T462C 005:795.258 - 0.027ms returns 0x02
T3EA0 007:401.231   JLINK_ReadMemEx(0x08007336, 0x0002 Bytes, ..., Flags = 0x02000000)
T3EA0 007:401.260    -- Read from DA cache (2 bytes @ 0x08007336)
T3EA0 007:401.268   Data:  10 B5
T3EA0 007:401.276 - 0.049ms returns 0x02
T3EA0 007:401.288   JLINK_SetBPEx(Addr = 0x080004E6, Type = 0xFFFFFFF2)
T3EA0 007:401.298 - 0.012ms returns 0x00000002
T3EA0 007:401.309 JLINK_Go()
T3EA0 007:401.755   CPU_WriteMem(4 bytes @ 0xE0002000)
T3EA0 007:402.268   CPU_ReadMem(4 bytes @ 0xE0001000)
T3EA0 007:402.751   CPU_WriteMem(4 bytes @ 0xE0002008)
T3EA0 007:403.731 - 2.431ms
T3EA0 007:504.686 JLINK_IsHalted()
T3EA0 007:506.897 - 2.226ms returns TRUE
T3EA0 007:506.922 JLINK_Halt()
T3EA0 007:506.928 - 0.008ms returns 0x00
T3EA0 007:506.935 JLINK_IsHalted()
T3EA0 007:506.940 - 0.007ms returns TRUE
T3EA0 007:506.947 JLINK_IsHalted()
T3EA0 007:506.952 - 0.007ms returns TRUE
T3EA0 007:506.959 JLINK_IsHalted()
T3EA0 007:506.964 - 0.007ms returns TRUE
T3EA0 007:506.974 JLINK_ReadReg(R15 (PC))
T3EA0 007:506.981 - 0.010ms returns 0x080004E6
T3EA0 007:506.989 JLINK_ReadReg(XPSR)
T3EA0 007:506.994 - 0.008ms returns 0x41000000
T3EA0 007:507.006 JLINK_ClrBPEx(BPHandle = 0x00000002)
T3EA0 007:507.012 - 0.008ms returns 0x00
T3EA0 007:507.023 JLINK_ReadMemU32(0xE000ED30, 0x0001 Items, ...)
T3EA0 007:507.033   CPU_ReadMem(4 bytes @ 0xE000ED30)
T3EA0 007:507.380   Data:  02 00 00 00
T3EA0 007:507.393 - 0.372ms returns 1
T3EA0 007:507.403 JLINK_ReadMemU32(0xE0001028, 0x0001 Items, ...)
T3EA0 007:507.412   CPU_ReadMem(4 bytes @ 0xE0001028)
T3EA0 007:507.817   Data:  00 00 00 00
T3EA0 007:507.829   Debug reg: DWT_FUNC[0]
T3EA0 007:507.837 - 0.436ms returns 1
T3EA0 007:507.848 JLINK_ReadMemU32(0xE0001038, 0x0001 Items, ...)
T3EA0 007:507.858   CPU_ReadMem(4 bytes @ 0xE0001038)
T3EA0 007:508.272   Data:  00 02 00 00
T3EA0 007:508.283   Debug reg: DWT_FUNC[1]
T3EA0 007:508.291 - 0.445ms returns 1
T3EA0 007:508.302 JLINK_ReadMemU32(0xE0001048, 0x0001 Items, ...)
T3EA0 007:508.311   CPU_ReadMem(4 bytes @ 0xE0001048)
T3EA0 007:508.691   Data:  00 00 00 00
T3EA0 007:508.703   Debug reg: DWT_FUNC[2]
T3EA0 007:508.710 - 0.411ms returns 1
T3EA0 007:508.721 JLINK_ReadMemU32(0xE0001058, 0x0001 Items, ...)
T3EA0 007:508.731   CPU_ReadMem(4 bytes @ 0xE0001058)
T3EA0 007:509.114   Data:  00 00 00 00
T3EA0 007:509.125   Debug reg: DWT_FUNC[3]
T3EA0 007:509.133 - 0.414ms returns 1
T3EA0 007:509.190 JLINK_ReadReg(R0)
T3EA0 007:509.199 - 0.011ms returns 0x00000000
T3EA0 007:509.210 JLINK_ReadReg(R1)
T3EA0 007:509.218 - 0.011ms returns 0x0000FFFF
T3EA0 007:509.225 JLINK_ReadReg(R2)
T3EA0 007:509.231 - 0.008ms returns 0x0800E6A8
T3EA0 007:509.238 JLINK_ReadReg(R3)
T3EA0 007:509.243 - 0.008ms returns 0x200023A8
T3EA0 007:509.250 JLINK_ReadReg(R4)
T3EA0 007:509.255 - 0.008ms returns 0xDEADBEEF
T3EA0 007:509.262 JLINK_ReadReg(R5)
T3EA0 007:509.267 - 0.008ms returns 0xDEADBEEF
T3EA0 007:509.274 JLINK_ReadReg(R6)
T3EA0 007:509.280 - 0.007ms returns 0xDEADBEEF
T3EA0 007:509.286 JLINK_ReadReg(R7)
T3EA0 007:509.292 - 0.008ms returns 0xDEADBEEF
T3EA0 007:509.299 JLINK_ReadReg(R8)
T3EA0 007:509.304 - 0.008ms returns 0xDEADBEEF
T3EA0 007:509.311 JLINK_ReadReg(R9)
T3EA0 007:509.316 - 0.008ms returns 0x00000001
T3EA0 007:509.323 JLINK_ReadReg(R10)
T3EA0 007:509.328 - 0.008ms returns 0x00000000
T3EA0 007:509.335 JLINK_ReadReg(R11)
T3EA0 007:509.340 - 0.007ms returns 0xDEADBEEF
T3EA0 007:509.347 JLINK_ReadReg(R12)
T3EA0 007:509.353 - 0.008ms returns 0x00000018
T3EA0 007:509.359 JLINK_ReadReg(R13 (SP))
T3EA0 007:509.365 - 0.008ms returns 0x20002820
T3EA0 007:509.372 JLINK_ReadReg(R14)
T3EA0 007:509.377 - 0.008ms returns 0x08008367
T3EA0 007:509.384 JLINK_ReadReg(R15 (PC))
T3EA0 007:509.390 - 0.008ms returns 0x080004E6
T3EA0 007:509.397 JLINK_ReadReg(XPSR)
T3EA0 007:509.402 - 0.008ms returns 0x41000000
T3EA0 007:509.409 JLINK_ReadReg(MSP)
T3EA0 007:509.414 - 0.008ms returns 0x200011D0
T3EA0 007:509.421 JLINK_ReadReg(PSP)
T3EA0 007:509.426 - 0.008ms returns 0x20002820
T3EA0 007:509.433 JLINK_ReadReg(CFBP)
T3EA0 007:509.438 - 0.008ms returns 0x02000000
T3EA0 007:509.445 JLINK_ReadReg(FPSCR)
T3EA0 007:512.556 - 3.117ms returns 0x03000000
T3EA0 007:512.570 JLINK_ReadReg(FPS0)
T3EA0 007:512.577 - 0.010ms returns 0x11003911
T3EA0 007:512.584 JLINK_ReadReg(FPS1)
T3EA0 007:512.590 - 0.008ms returns 0x9A8E716F
T3EA0 007:512.597 JLINK_ReadReg(FPS2)
T3EA0 007:512.602 - 0.008ms returns 0x0C202239
T3EA0 007:512.609 JLINK_ReadReg(FPS3)
T3EA0 007:512.614 - 0.008ms returns 0x1018C402
T3EA0 007:512.621 JLINK_ReadReg(FPS4)
T3EA0 007:512.627 - 0.008ms returns 0x80269C06
T3EA0 007:512.633 JLINK_ReadReg(FPS5)
T3EA0 007:512.639 - 0.007ms returns 0x67C9440E
T3EA0 007:512.645 JLINK_ReadReg(FPS6)
T3EA0 007:512.651 - 0.008ms returns 0x0B9B3C02
T3EA0 007:512.658 JLINK_ReadReg(FPS7)
T3EA0 007:512.663 - 0.007ms returns 0x82070028
T3EA0 007:512.670 JLINK_ReadReg(FPS8)
T3EA0 007:512.675 - 0.007ms returns 0xC4000002
T3EA0 007:512.682 JLINK_ReadReg(FPS9)
T3EA0 007:512.687 - 0.007ms returns 0x081A124A
T3EA0 007:512.694 JLINK_ReadReg(FPS10)
T3EA0 007:512.699 - 0.007ms returns 0x500D7119
T3EA0 007:512.706 JLINK_ReadReg(FPS11)
T3EA0 007:512.711 - 0.008ms returns 0x04A05DE1
T3EA0 007:512.718 JLINK_ReadReg(FPS12)
T3EA0 007:512.723 - 0.007ms returns 0x41634D22
T3EA0 007:512.730 JLINK_ReadReg(FPS13)
T3EA0 007:512.735 - 0.007ms returns 0x19282608
T3EA0 007:512.742 JLINK_ReadReg(FPS14)
T3EA0 007:512.748 - 0.008ms returns 0x8C1004DE
T3EA0 007:512.754 JLINK_ReadReg(FPS15)
T3EA0 007:512.760 - 0.007ms returns 0x851080A2
T3EA0 007:512.766 JLINK_ReadReg(FPS16)
T3EA0 007:512.772 - 0.007ms returns 0xCE02DC08
T3EA0 007:512.778 JLINK_ReadReg(FPS17)
T3EA0 007:512.784 - 0.007ms returns 0x00416420
T3EA0 007:512.790 JLINK_ReadReg(FPS18)
T3EA0 007:512.796 - 0.007ms returns 0xD000808A
T3EA0 007:512.802 JLINK_ReadReg(FPS19)
T3EA0 007:512.808 - 0.007ms returns 0x0170D013
T3EA0 007:512.815 JLINK_ReadReg(FPS20)
T3EA0 007:512.820 - 0.007ms returns 0x02240584
T3EA0 007:512.827 JLINK_ReadReg(FPS21)
T3EA0 007:512.832 - 0.007ms returns 0x6683AA0C
T3EA0 007:512.839 JLINK_ReadReg(FPS22)
T3EA0 007:512.844 - 0.008ms returns 0x341806A8
T3EA0 007:512.851 JLINK_ReadReg(FPS23)
T3EA0 007:512.856 - 0.007ms returns 0x8B84840E
T3EA0 007:512.863 JLINK_ReadReg(FPS24)
T3EA0 007:512.868 - 0.007ms returns 0x0C902000
T3EA0 007:512.875 JLINK_ReadReg(FPS25)
T3EA0 007:512.880 - 0.007ms returns 0x8C1506CA
T3EA0 007:512.887 JLINK_ReadReg(FPS26)
T3EA0 007:512.892 - 0.007ms returns 0x18506108
T3EA0 007:512.901 JLINK_ReadReg(FPS27)
T3EA0 007:512.909 - 0.010ms returns 0x7620B144
T3EA0 007:512.916 JLINK_ReadReg(FPS28)
T3EA0 007:512.921 - 0.008ms returns 0x24D260B1
T3EA0 007:512.928 JLINK_ReadReg(FPS29)
T3EA0 007:512.933 - 0.007ms returns 0x3D020511
T3EA0 007:512.940 JLINK_ReadReg(FPS30)
T3EA0 007:512.945 - 0.007ms returns 0xC4340085
T3EA0 007:512.952 JLINK_ReadReg(FPS31)
T3EA0 007:512.957 - 0.008ms returns 0x00D20284
T462C 007:513.197   JLINK_ReadMemEx(0x2000282C, 0x0004 Bytes, ..., Flags = 0x02000000)
T462C 007:513.215   CPU_ReadMem(4 bytes @ 0x2000282C)
T462C 007:513.647   Data:  D5 B0 00 08
T462C 007:513.657 - 0.464ms returns 0x04
T462C 007:513.926   JLINK_ReadMemEx(0x20002828, 0x0004 Bytes, ..., Flags = 0x02000000)
T462C 007:513.939   CPU_ReadMem(4 bytes @ 0x20002828)
T462C 007:514.334   Data:  EF BE AD DE
T462C 007:514.344 - 0.421ms returns 0x04
T462C 007:514.354   JLINK_ReadMemEx(0x2000282C, 0x0004 Bytes, ..., Flags = 0x02000000)
T462C 007:514.365   CPU_ReadMem(4 bytes @ 0x2000282C)
T462C 007:514.758   Data:  D5 B0 00 08
T462C 007:514.769 - 0.417ms returns 0x04
T462C 007:515.144   JLINK_ReadMemEx(0x20002844, 0x0004 Bytes, ..., Flags = 0x02000000)
T462C 007:515.156   CPU_ReadMem(4 bytes @ 0x20002844)
T462C 007:515.607   Data:  00 00 00 00
T462C 007:515.617 - 0.476ms returns 0x04
T462C 007:519.635   JLINK_ReadMemEx(0x20002820, 0x0004 Bytes, ..., Flags = 0x02000000)
T462C 007:519.657   CPU_ReadMem(4 bytes @ 0x20002820)
T462C 007:519.981   Data:  00 00 00 00
T462C 007:519.992 - 0.360ms returns 0x04
T462C 007:520.019   JLINK_ReadMemEx(0x20002824, 0x0004 Bytes, ..., Flags = 0x02000000)
T462C 007:520.030   CPU_ReadMem(4 bytes @ 0x20002824)
T462C 007:520.450   Data:  00 00 00 00
T462C 007:520.462 - 0.446ms returns 0x04
T462C 007:526.103   JLINK_ReadMemEx(0x20002820, 0x0004 Bytes, ..., Flags = 0x02000000)
T462C 007:526.128   CPU_ReadMem(4 bytes @ 0x20002820)
T462C 007:526.438   Data:  00 00 00 00
T462C 007:526.449 - 0.348ms returns 0x04
T462C 007:526.474   JLINK_ReadMemEx(0x20002824, 0x0004 Bytes, ..., Flags = 0x02000000)
T462C 007:526.486   CPU_ReadMem(4 bytes @ 0x20002824)
T462C 007:526.905   Data:  00 00 00 00
T462C 007:526.918 - 0.447ms returns 0x04
T3EA0 009:274.589   JLINK_ReadMemEx(0x080004E6, 0x0002 Bytes, ..., Flags = 0x02000000)
T3EA0 009:274.620   CPU_ReadMem(64 bytes @ 0x080004C0)
T3EA0 009:275.328    -- Updating DA cache (64 bytes @ 0x080004C0)
T3EA0 009:275.341    -- Read from DA cache (2 bytes @ 0x080004E6)
T3EA0 009:275.349   Data:  41 20
T3EA0 009:275.356 - 0.770ms returns 0x02
T3EA0 009:275.367   JLINK_ReadMemEx(0x080004E8, 0x003C Bytes, ..., Flags = 0x02000000)
T3EA0 009:275.381   CPU_ReadMem(64 bytes @ 0x08000500)
T3EA0 009:276.129    -- Updating DA cache (64 bytes @ 0x08000500)
T3EA0 009:276.140    -- Read from DA cache (60 bytes @ 0x080004E8)
T3EA0 009:276.148   Data:  FF F7 4A FF 02 28 03 D0 02 21 41 20 FF F7 B5 FE ...
T3EA0 009:276.156 - 0.792ms returns 0x3C
T3EA0 009:276.165   JLINK_ReadMemEx(0x080004E8, 0x0002 Bytes, ..., Flags = 0x02000000)
T3EA0 009:276.175    -- Read from DA cache (2 bytes @ 0x080004E8)
T3EA0 009:276.182   Data:  FF F7
T3EA0 009:276.190 - 0.027ms returns 0x02
T3EA0 009:276.198   JLINK_ReadMemEx(0x080004E6, 0x0002 Bytes, ..., Flags = 0x02000000)
T3EA0 009:276.206    -- Read from DA cache (2 bytes @ 0x080004E6)
T3EA0 009:276.213   Data:  41 20
T3EA0 009:276.220 - 0.025ms returns 0x02
T3EA0 009:276.230 JLINK_Step()
T3EA0 009:276.644    -- Read from DA cache (2 bytes @ 0x080004E6)
T3EA0 009:276.657   CPU_ReadMem(4 bytes @ 0xE000ED18)
T3EA0 009:277.017   CPU_WriteMem(4 bytes @ 0xE000ED18)
T3EA0 009:277.385   CPU_ReadMem(4 bytes @ 0xE000ED18)
T3EA0 009:277.850   CPU_WriteMem(4 bytes @ 0xE000ED18)
T3EA0 009:278.228   CPU_ReadMem(4 bytes @ 0xE0001004)
T3EA0 009:278.499   -- Simulated
T3EA0 009:278.509 - 2.282ms returns 0x00
T3EA0 009:278.521 JLINK_ReadReg(R15 (PC))
T3EA0 009:278.529 - 0.011ms returns 0x080004E8
T3EA0 009:278.537 JLINK_ReadReg(XPSR)
T3EA0 009:278.543 - 0.008ms returns 0x01000000
T3EA0 009:278.604   JLINK_ReadMemEx(0x080004E8, 0x003C Bytes, ..., Flags = 0x02000000)
T3EA0 009:278.617    -- Read from DA cache (60 bytes @ 0x080004E8)
T3EA0 009:278.625   Data:  FF F7 4A FF 02 28 03 D0 02 21 41 20 FF F7 B5 FE ...
T3EA0 009:278.632 - 0.031ms returns 0x3C
T3EA0 009:278.640   JLINK_ReadMemEx(0x080004E8, 0x0002 Bytes, ..., Flags = 0x02000000)
T3EA0 009:278.648    -- Read from DA cache (2 bytes @ 0x080004E8)
T3EA0 009:278.655   Data:  FF F7
T3EA0 009:278.663 - 0.026ms returns 0x02
T3EA0 009:278.670   JLINK_ReadMemEx(0x080004EA, 0x0002 Bytes, ..., Flags = 0x02000000)
T3EA0 009:278.678    -- Read from DA cache (2 bytes @ 0x080004EA)
T3EA0 009:278.686   Data:  4A FF
T3EA0 009:278.693 - 0.025ms returns 0x02
T3EA0 009:278.703   JLINK_SetBPEx(Addr = 0x080004EC, Type = 0xFFFFFFF2)
T3EA0 009:278.712 - 0.011ms returns 0x00000003
T3EA0 009:278.721   JLINK_SetBPEx(Addr = 0x080004E6, Type = 0xFFFFFFF2)
T3EA0 009:278.728 - 0.010ms returns 0x00000004
T3EA0 009:278.739 JLINK_Go()
T3EA0 009:278.747   CPU_WriteMem(4 bytes @ 0xE0002000)
T3EA0 009:279.051   CPU_WriteMem(4 bytes @ 0xE0002000)
T3EA0 009:279.405   CPU_ReadMem(4 bytes @ 0xE0001000)
T3EA0 009:279.775   CPU_WriteMem(4 bytes @ 0xE0002008)
T3EA0 009:279.787   CPU_WriteMem(4 bytes @ 0xE000200C)
T3EA0 009:280.465   CPU_WriteMem(4 bytes @ 0xE0001004)
T3EA0 009:281.728 - 2.994ms
T3EA0 009:382.041 JLINK_IsHalted()
T3EA0 009:384.652 - 2.626ms returns TRUE
T3EA0 009:384.679 JLINK_Halt()
T3EA0 009:384.685 - 0.008ms returns 0x00
T3EA0 009:384.692 JLINK_IsHalted()
T3EA0 009:384.697 - 0.007ms returns TRUE
T3EA0 009:384.704 JLINK_IsHalted()
T3EA0 009:384.709 - 0.007ms returns TRUE
T3EA0 009:384.715 JLINK_IsHalted()
T3EA0 009:384.720 - 0.007ms returns TRUE
T3EA0 009:384.730 JLINK_ReadReg(R15 (PC))
T3EA0 009:384.739 - 0.011ms returns 0x080004EC
T3EA0 009:384.747 JLINK_ReadReg(XPSR)
T3EA0 009:384.752 - 0.008ms returns 0x81000000
T3EA0 009:384.765 JLINK_ClrBPEx(BPHandle = 0x00000003)
T3EA0 009:384.772 - 0.008ms returns 0x00
T3EA0 009:384.780 JLINK_ClrBPEx(BPHandle = 0x00000004)
T3EA0 009:384.785 - 0.007ms returns 0x00
T3EA0 009:386.033 JLINK_ReadMemU32(0xE000ED30, 0x0001 Items, ...)
T3EA0 009:386.061   CPU_ReadMem(4 bytes @ 0xE000ED30)
T3EA0 009:386.605   Data:  02 00 00 00
T3EA0 009:386.625 - 0.595ms returns 1
T3EA0 009:386.636 JLINK_ReadMemU32(0xE0001028, 0x0001 Items, ...)
T3EA0 009:386.650   CPU_ReadMem(4 bytes @ 0xE0001028)
T3EA0 009:387.119   Data:  00 00 00 00
T3EA0 009:387.132   Debug reg: DWT_FUNC[0]
T3EA0 009:387.139 - 0.505ms returns 1
T3EA0 009:387.149 JLINK_ReadMemU32(0xE0001038, 0x0001 Items, ...)
T3EA0 009:387.159   CPU_ReadMem(4 bytes @ 0xE0001038)
T3EA0 009:387.566   Data:  00 02 00 00
T3EA0 009:387.582   Debug reg: DWT_FUNC[1]
T3EA0 009:387.589 - 0.442ms returns 1
T3EA0 009:387.599 JLINK_ReadMemU32(0xE0001048, 0x0001 Items, ...)
T3EA0 009:387.611   CPU_ReadMem(4 bytes @ 0xE0001048)
T3EA0 009:388.100   Data:  00 00 00 00
T3EA0 009:388.116   Debug reg: DWT_FUNC[2]
T3EA0 009:388.124 - 0.527ms returns 1
T3EA0 009:388.134 JLINK_ReadMemU32(0xE0001058, 0x0001 Items, ...)
T3EA0 009:388.167   CPU_ReadMem(4 bytes @ 0xE0001058)
T3EA0 009:388.523   Data:  00 00 00 00
T3EA0 009:388.549   Debug reg: DWT_FUNC[3]
T3EA0 009:388.572 - 0.440ms returns 1
T3EA0 009:388.588   JLINK_ReadMemEx(0x080004EA, 0x0002 Bytes, ..., Flags = 0x02000000)
T3EA0 009:388.602   CPU_ReadMem(64 bytes @ 0x080004C0)
T3EA0 009:389.383    -- Updating DA cache (64 bytes @ 0x080004C0)
T3EA0 009:389.395    -- Read from DA cache (2 bytes @ 0x080004EA)
T3EA0 009:389.403   Data:  4A FF
T3EA0 009:389.410 - 0.825ms returns 0x02
T3EA0 009:389.420   JLINK_ReadMemEx(0x080004EC, 0x003C Bytes, ..., Flags = 0x02000000)
T3EA0 009:389.431   CPU_ReadMem(64 bytes @ 0x08000500)
T3EA0 009:390.005    -- Updating DA cache (64 bytes @ 0x08000500)
T3EA0 009:390.016    -- Read from DA cache (60 bytes @ 0x080004EC)
T3EA0 009:390.024   Data:  02 28 03 D0 02 21 41 20 FF F7 B5 FE 02 21 40 20 ...
T3EA0 009:390.031 - 0.614ms returns 0x3C
T3EA0 009:390.041   JLINK_ReadMemEx(0x080004EC, 0x0002 Bytes, ..., Flags = 0x02000000)
T3EA0 009:390.057    -- Read from DA cache (2 bytes @ 0x080004EC)
T3EA0 009:390.065   Data:  02 28
T3EA0 009:390.072 - 0.034ms returns 0x02
T3EA0 009:390.080   JLINK_ReadMemEx(0x080004EC, 0x003C Bytes, ..., Flags = 0x02000000)
T3EA0 009:390.089    -- Read from DA cache (60 bytes @ 0x080004EC)
T3EA0 009:390.096   Data:  02 28 03 D0 02 21 41 20 FF F7 B5 FE 02 21 40 20 ...
T3EA0 009:390.103 - 0.025ms returns 0x3C
T3EA0 009:390.110   JLINK_ReadMemEx(0x080004EC, 0x0002 Bytes, ..., Flags = 0x02000000)
T3EA0 009:390.118    -- Read from DA cache (2 bytes @ 0x080004EC)
T3EA0 009:390.125   Data:  02 28
T3EA0 009:390.132 - 0.024ms returns 0x02
T3EA0 009:390.139   JLINK_ReadMemEx(0x080004EE, 0x0002 Bytes, ..., Flags = 0x02000000)
T3EA0 009:390.147    -- Read from DA cache (2 bytes @ 0x080004EE)
T3EA0 009:390.154   Data:  03 D0
T3EA0 009:390.161 - 0.024ms returns 0x02
T3EA0 009:390.171 JLINK_Step()
T3EA0 009:390.177    -- Read from DA cache (2 bytes @ 0x080004EC)
T3EA0 009:390.186   CPU_ReadMem(4 bytes @ 0xE0001004)
T3EA0 009:390.472   -- Simulated
T3EA0 009:390.483 - 0.314ms returns 0x00
T3EA0 009:390.494 JLINK_ReadReg(R15 (PC))
T3EA0 009:390.502 - 0.010ms returns 0x080004EE
T3EA0 009:390.509 JLINK_ReadReg(XPSR)
T3EA0 009:390.515 - 0.008ms returns 0x61000000
T3EA0 009:390.527   JLINK_ReadMemEx(0x080004EE, 0x0002 Bytes, ..., Flags = 0x02000000)
T3EA0 009:390.537    -- Read from DA cache (2 bytes @ 0x080004EE)
T3EA0 009:390.544   Data:  03 D0
T3EA0 009:390.551 - 0.027ms returns 0x02
T3EA0 009:390.559   JLINK_ReadMemEx(0x080004F0, 0x003C Bytes, ..., Flags = 0x02000000)
T3EA0 009:390.567    -- Read from DA cache (60 bytes @ 0x080004F0)
T3EA0 009:390.574   Data:  02 21 41 20 FF F7 B5 FE 02 21 40 20 FF F7 B1 FE ...
T3EA0 009:390.581 - 0.025ms returns 0x3C
T3EA0 009:390.588   JLINK_ReadMemEx(0x080004F0, 0x0002 Bytes, ..., Flags = 0x02000000)
T3EA0 009:390.596    -- Read from DA cache (2 bytes @ 0x080004F0)
T3EA0 009:390.603   Data:  02 21
T3EA0 009:390.610 - 0.025ms returns 0x02
T3EA0 009:390.619 JLINK_Step()
T3EA0 009:390.625    -- Read from DA cache (2 bytes @ 0x080004EE)
T3EA0 009:390.633   -- Simulated
T3EA0 009:390.640 - 0.023ms returns 0x00
T3EA0 009:390.649 JLINK_ReadReg(R15 (PC))
T3EA0 009:390.654 - 0.008ms returns 0x080004F8
T3EA0 009:390.661 JLINK_ReadReg(XPSR)
T3EA0 009:390.666 - 0.007ms returns 0x61000000
T3EA0 009:390.712 JLINK_ReadReg(R0)
T3EA0 009:390.718 - 0.009ms returns 0x00000002
T3EA0 009:390.725 JLINK_ReadReg(R1)
T3EA0 009:390.730 - 0.008ms returns 0x0000FFFF
T3EA0 009:390.737 JLINK_ReadReg(R2)
T3EA0 009:390.742 - 0.007ms returns 0x0800E6A8
T3EA0 009:390.749 JLINK_ReadReg(R3)
T3EA0 009:390.754 - 0.007ms returns 0x200023A8
T3EA0 009:390.761 JLINK_ReadReg(R4)
T3EA0 009:390.766 - 0.007ms returns 0xDEADBEEF
T3EA0 009:390.773 JLINK_ReadReg(R5)
T3EA0 009:390.778 - 0.007ms returns 0xDEADBEEF
T3EA0 009:390.785 JLINK_ReadReg(R6)
T3EA0 009:390.790 - 0.007ms returns 0xDEADBEEF
T3EA0 009:390.797 JLINK_ReadReg(R7)
T3EA0 009:390.802 - 0.007ms returns 0xDEADBEEF
T3EA0 009:390.808 JLINK_ReadReg(R8)
T3EA0 009:390.814 - 0.007ms returns 0xDEADBEEF
T3EA0 009:390.820 JLINK_ReadReg(R9)
T3EA0 009:390.826 - 0.007ms returns 0x00000001
T3EA0 009:390.832 JLINK_ReadReg(R10)
T3EA0 009:390.838 - 0.007ms returns 0x00000000
T3EA0 009:390.844 JLINK_ReadReg(R11)
T3EA0 009:390.849 - 0.007ms returns 0xDEADBEEF
T3EA0 009:390.856 JLINK_ReadReg(R12)
T3EA0 009:390.861 - 0.007ms returns 0x00000018
T3EA0 009:390.868 JLINK_ReadReg(R13 (SP))
T3EA0 009:390.874 - 0.008ms returns 0x20002820
T3EA0 009:390.880 JLINK_ReadReg(R14)
T3EA0 009:390.886 - 0.007ms returns 0x08008367
T3EA0 009:390.892 JLINK_ReadReg(R15 (PC))
T3EA0 009:390.897 - 0.007ms returns 0x080004F8
T3EA0 009:390.904 JLINK_ReadReg(XPSR)
T3EA0 009:390.909 - 0.007ms returns 0x61000000
T3EA0 009:390.916 JLINK_ReadReg(MSP)
T3EA0 009:390.921 - 0.007ms returns 0x200011D0
T3EA0 009:390.928 JLINK_ReadReg(PSP)
T3EA0 009:390.933 - 0.007ms returns 0x20002820
T3EA0 009:390.940 JLINK_ReadReg(CFBP)
T3EA0 009:390.949 - 0.011ms returns 0x02000000
T3EA0 009:390.956 JLINK_ReadReg(FPSCR)
T3EA0 009:394.455 - 3.514ms returns 0x03000000
T3EA0 009:394.478 JLINK_ReadReg(FPS0)
T3EA0 009:394.487 - 0.011ms returns 0x11003911
T3EA0 009:394.494 JLINK_ReadReg(FPS1)
T3EA0 009:394.500 - 0.008ms returns 0x9A8E716F
T3EA0 009:394.507 JLINK_ReadReg(FPS2)
T3EA0 009:394.512 - 0.007ms returns 0x0C202239
T3EA0 009:394.519 JLINK_ReadReg(FPS3)
T3EA0 009:394.524 - 0.007ms returns 0x1018C402
T3EA0 009:394.531 JLINK_ReadReg(FPS4)
T3EA0 009:394.536 - 0.007ms returns 0x80269C06
T3EA0 009:394.542 JLINK_ReadReg(FPS5)
T3EA0 009:394.548 - 0.007ms returns 0x67C9440E
T3EA0 009:394.554 JLINK_ReadReg(FPS6)
T3EA0 009:394.560 - 0.007ms returns 0x0B9B3C02
T3EA0 009:394.566 JLINK_ReadReg(FPS7)
T3EA0 009:394.571 - 0.007ms returns 0x82070028
T3EA0 009:394.578 JLINK_ReadReg(FPS8)
T3EA0 009:394.583 - 0.007ms returns 0xC4000002
T3EA0 009:394.590 JLINK_ReadReg(FPS9)
T3EA0 009:394.595 - 0.007ms returns 0x081A124A
T3EA0 009:394.602 JLINK_ReadReg(FPS10)
T3EA0 009:394.607 - 0.007ms returns 0x500D7119
T3EA0 009:394.614 JLINK_ReadReg(FPS11)
T3EA0 009:394.619 - 0.007ms returns 0x04A05DE1
T3EA0 009:394.625 JLINK_ReadReg(FPS12)
T3EA0 009:394.631 - 0.007ms returns 0x41634D22
T3EA0 009:394.637 JLINK_ReadReg(FPS13)
T3EA0 009:394.642 - 0.007ms returns 0x19282608
T3EA0 009:394.649 JLINK_ReadReg(FPS14)
T3EA0 009:394.654 - 0.007ms returns 0x8C1004DE
T3EA0 009:394.661 JLINK_ReadReg(FPS15)
T3EA0 009:394.666 - 0.007ms returns 0x851080A2
T3EA0 009:394.673 JLINK_ReadReg(FPS16)
T3EA0 009:394.678 - 0.007ms returns 0xCE02DC08
T3EA0 009:394.684 JLINK_ReadReg(FPS17)
T3EA0 009:394.690 - 0.007ms returns 0x00416420
T3EA0 009:394.696 JLINK_ReadReg(FPS18)
T3EA0 009:394.701 - 0.007ms returns 0xD000808A
T3EA0 009:394.708 JLINK_ReadReg(FPS19)
T3EA0 009:394.713 - 0.007ms returns 0x0170D013
T3EA0 009:394.720 JLINK_ReadReg(FPS20)
T3EA0 009:394.725 - 0.007ms returns 0x02240584
T3EA0 009:394.731 JLINK_ReadReg(FPS21)
T3EA0 009:394.737 - 0.007ms returns 0x6683AA0C
T3EA0 009:394.743 JLINK_ReadReg(FPS22)
T3EA0 009:394.749 - 0.007ms returns 0x341806A8
T3EA0 009:394.755 JLINK_ReadReg(FPS23)
T3EA0 009:394.760 - 0.007ms returns 0x8B84840E
T3EA0 009:394.767 JLINK_ReadReg(FPS24)
T3EA0 009:394.772 - 0.007ms returns 0x0C902000
T3EA0 009:394.779 JLINK_ReadReg(FPS25)
T3EA0 009:394.784 - 0.007ms returns 0x8C1506CA
T3EA0 009:394.791 JLINK_ReadReg(FPS26)
T3EA0 009:394.796 - 0.007ms returns 0x18506108
T3EA0 009:394.802 JLINK_ReadReg(FPS27)
T3EA0 009:394.808 - 0.007ms returns 0x7620B144
T3EA0 009:394.814 JLINK_ReadReg(FPS28)
T3EA0 009:394.819 - 0.007ms returns 0x24D260B1
T3EA0 009:394.826 JLINK_ReadReg(FPS29)
T3EA0 009:394.831 - 0.007ms returns 0x3D020511
T3EA0 009:394.838 JLINK_ReadReg(FPS30)
T3EA0 009:394.843 - 0.007ms returns 0xC4340085
T3EA0 009:394.849 JLINK_ReadReg(FPS31)
T3EA0 009:394.855 - 0.007ms returns 0x00D20284
T462C 009:395.145   JLINK_ReadMemEx(0x2000282C, 0x0004 Bytes, ..., Flags = 0x02000000)
T462C 009:395.165   CPU_ReadMem(4 bytes @ 0x2000282C)
T462C 009:395.707   Data:  D5 B0 00 08
T462C 009:395.720 - 0.578ms returns 0x04
T462C 009:395.735   JLINK_ReadMemEx(0x20002828, 0x0004 Bytes, ..., Flags = 0x02000000)
T462C 009:395.747   CPU_ReadMem(4 bytes @ 0x20002828)
T462C 009:396.275   Data:  EF BE AD DE
T462C 009:396.295 - 0.563ms returns 0x04
T462C 009:396.310   JLINK_ReadMemEx(0x2000282C, 0x0004 Bytes, ..., Flags = 0x02000000)
T462C 009:396.326   CPU_ReadMem(4 bytes @ 0x2000282C)
T462C 009:397.407   Data:  D5 B0 00 08
T462C 009:397.428 - 1.120ms returns 0x04
T462C 009:397.452   JLINK_ReadMemEx(0x20002844, 0x0004 Bytes, ..., Flags = 0x02000000)
T462C 009:397.469   CPU_ReadMem(4 bytes @ 0x20002844)
T462C 009:397.945   Data:  00 00 00 00
T462C 009:397.959 - 0.509ms returns 0x04
T462C 009:398.002   JLINK_ReadMemEx(0x20002820, 0x0004 Bytes, ..., Flags = 0x02000000)
T462C 009:398.017   CPU_ReadMem(4 bytes @ 0x20002820)
T462C 009:398.910   Data:  00 00 00 00
T462C 009:398.924 - 0.924ms returns 0x04
T462C 009:398.950   JLINK_ReadMemEx(0x20002824, 0x0004 Bytes, ..., Flags = 0x02000000)
T462C 009:398.971   CPU_ReadMem(4 bytes @ 0x20002824)
T462C 009:399.417   Data:  00 00 00 00
T462C 009:399.429 - 0.482ms returns 0x04
T462C 015:059.537 JLINK_Close()
T462C 015:060.033   CPU_WriteMem(4 bytes @ 0xE0002008)
T462C 015:060.045   CPU_WriteMem(4 bytes @ 0xE000200C)
T462C 015:060.784   CPU_ReadMem(4 bytes @ 0xE0001000)
T462C 015:061.203   CPU_WriteMem(4 bytes @ 0xE0001004)
T462C 015:070.972 - 11.445ms
T462C 015:070.985   
T462C 015:070.990   Closed
